/TP0/D (Vc=0.9) X,/TP0/D (Vc=0.9) Y,/TP0/D (Vc=1.014286) X,/TP0/D (Vc=1.014286) Y,/TP0/D (Vc=1.128571) X,/TP0/D (Vc=1.128571) Y,/TP0/D (Vc=1.242857) X,/TP0/D (Vc=1.242857) Y,/TP0/D (Vc=1.357143) X,/TP0/D (Vc=1.357143) Y,/TP0/D (Vc=1.471429) X,/TP0/D (Vc=1.471429) Y,/TP0/D (Vc=1.585714) X,/TP0/D (Vc=1.585714) Y,/TP0/D (Vc=1.7) X,/TP0/D (Vc=1.7) Y,abs(value(getData("/TP0/D" ?result "dc") "Vc" 1.7)) X,abs(value(getData("/TP0/D" ?result "dc") "Vc" 1.7)) Y,abs(value(getData("/TP0/D" ?result "dc") "Vc" 0.9)) X,abs(value(getData("/TP0/D" ?result "dc") "Vc" 0.9)) Y,abs(value(getData("/TP0/D" ?result "dc") "Vc" 1.1)) X,abs(value(getData("/TP0/D" ?result "dc") "Vc" 1.1)) Y,abs(value(getData("/TP0/D" ?result "dc") "Vc" 1.2)) X,abs(value(getData("/TP0/D" ?result "dc") "Vc" 1.2)) Y,abs(value(getData("/TP0/D" ?result "dc") "Vc" 1.3)) X,abs(value(getData("/TP0/D" ?result "dc") "Vc" 1.3)) Y,abs(value(getData("/TP0/D" ?result "dc") "Vc" 1.4)) X,abs(value(getData("/TP0/D" ?result "dc") "Vc" 1.4)) Y,abs(value(getData("/TP0/D" ?result "dc") "Vc" 1.6)) X,abs(value(getData("/TP0/D" ?result "dc") "Vc" 1.6)) Y,abs(value(getData("/TP0/D" ?result "dc") "Vc" 1.0)) X,abs(value(getData("/TP0/D" ?result "dc") "Vc" 1.0)) Y,abs(value(getData("/TP0/D" ?result "dc") "Vc" 1.5)) X,abs(value(getData("/TP0/D" ?result "dc") "Vc" 1.5)) Y
-0.7,7.867200546212125e-08,-0.7,2.113170862629047e-07,-0.7,4.715898314699629e-07,-0.7,9.056934222109127e-07,-0.7,1.559952176833378e-06,-0.7,2.487266428379675e-06,-0.7,3.865261527787453e-06,-0.7,7.22604966350015e-06,-0.7,7.22604966350015e-06,-0.7,7.867200546212125e-08,-0.7,2.113170862629047e-07,-0.7,4.715898314699629e-07,-0.7,9.056934222109127e-07,-0.7,1.559952176833378e-06,-0.7,3.865261527787453e-06,-0.7,7.867200546212125e-08,-0.7,2.487266428379675e-06
-0.6719999999999999,5.985549156495484e-08,-0.6719999999999999,1.683551612121547e-07,-0.6719999999999999,3.923897778863904e-07,-0.6719999999999999,7.788612644114567e-07,-0.6719999999999999,1.373478485904259e-06,-0.6719999999999999,2.226778356321246e-06,-0.6719999999999999,3.440951155227246e-06,-0.6719999999999999,6.066252011189514e-06,-0.6719999999999999,6.066252011189514e-06,-0.6719999999999999,5.985549156495484e-08,-0.6719999999999999,1.683551612121547e-07,-0.6719999999999999,3.923897778863904e-07,-0.6719999999999999,7.788612644114567e-07,-0.6719999999999999,1.373478485904259e-06,-0.6719999999999999,3.440951155227246e-06,-0.6719999999999999,5.985549156495484e-08,-0.6719999999999999,2.226778356321246e-06
-0.6439999999999999,4.510009640461287e-08,-0.6439999999999999,1.325645464473139e-07,-0.6439999999999999,3.232815102662506e-07,-0.6439999999999999,6.649528042258015e-07,-0.6439999999999999,1.203058946250201e-06,-0.6439999999999999,1.986332392811247e-06,-0.6439999999999999,3.08361700633977e-06,-0.6439999999999999,5.132231896170227e-06,-0.6439999999999999,5.132231896170227e-06,-0.6439999999999999,4.510009640461287e-08,-0.6439999999999999,1.325645464473139e-07,-0.6439999999999999,3.232815102662506e-07,-0.6439999999999999,6.649528042258015e-07,-0.6439999999999999,1.203058946250201e-06,-0.6439999999999999,3.08361700633977e-06,-0.6439999999999999,4.510009640461287e-08,-0.6439999999999999,1.986332392811247e-06
-0.6159999999999999,3.369435136141321e-08,-0.6159999999999999,1.031670908908196e-07,-0.6159999999999999,2.635604450419028e-07,-0.6159999999999999,5.632553369559565e-07,-0.6159999999999999,1.04786473792132e-06,-0.6159999999999999,1.764711123942504e-06,-0.6159999999999999,2.770301676772618e-06,-0.6159999999999999,4.41600050199457e-06,-0.6159999999999999,4.41600050199457e-06,-0.6159999999999999,3.369435136141321e-08,-0.6159999999999999,1.031670908908196e-07,-0.6159999999999999,2.635604450419028e-07,-0.6159999999999999,5.632553369559565e-07,-0.6159999999999999,1.04786473792132e-06,-0.6159999999999999,2.770301676772618e-06,-0.6159999999999999,3.369435136141321e-08,-0.6159999999999999,1.764711123942504e-06
-0.5879999999999999,2.49923816599913e-08,-0.5879999999999999,7.938105918463069e-08,-0.5879999999999999,2.125082247027016e-07,-0.5879999999999999,4.73067226273196e-07,-0.5879999999999999,9.071144274211163e-07,-0.5879999999999999,1.560949769692925e-06,-0.5879999999999999,2.487383446318985e-06,-0.5879999999999999,3.872418150605853e-06,-0.5879999999999999,3.872418150605853e-06,-0.5879999999999999,2.49923816599913e-08,-0.5879999999999999,7.938105918463069e-08,-0.5879999999999999,2.125082247027016e-07,-0.5879999999999999,4.73067226273196e-07,-0.5879999999999999,9.071144274211163e-07,-0.5879999999999999,2.487383446318985e-06,-0.5879999999999999,2.49923816599913e-08,-0.5879999999999999,1.560949769692925e-06
-0.5599999999999998,1.842857550441265e-08,-0.5599999999999998,6.042855595126732e-08,-0.5599999999999998,1.693886747878066e-07,-0.5599999999999998,3.936907968108739e-07,-0.5599999999999998,7.800544789046443e-07,-0.5599999999999998,1.374141485439675e-06,-0.5599999999999998,2.226474466042516e-06,-0.5599999999999998,3.442776893906123e-06,-0.5599999999999998,3.442776893906123e-06,-0.5599999999999998,1.842857550441265e-08,-0.5599999999999998,6.042855595126732e-08,-0.5599999999999998,1.693886747878066e-07,-0.5599999999999998,3.936907968108739e-07,-0.5599999999999998,7.800544789046443e-07,-0.5599999999999998,2.226474466042516e-06,-0.5599999999999998,1.842857550441265e-08,-0.5599999999999998,1.374141485439675e-06
-0.5319999999999998,1.352478591342053e-08,-0.5319999999999998,4.555444890414206e-08,-0.5319999999999998,1.334463212836976e-07,-0.5319999999999998,3.244261591201634e-07,-0.5319999999999998,6.659533276494544e-07,-0.5319999999999998,1.203426891883289e-06,-0.5319999999999998,1.98554449586445e-06,-0.5319999999999998,3.082527731479639e-06,-0.5319999999999998,3.082527731479639e-06,-0.5319999999999998,1.352478591342053e-08,-0.5319999999999998,4.555444890414206e-08,-0.5319999999999998,1.334463212836976e-07,-0.5319999999999998,3.244261591201634e-07,-0.5319999999999998,6.659533276494544e-07,-0.5319999999999998,1.98554449586445e-06,-0.5319999999999998,1.352478591342053e-08,-0.5319999999999998,1.203426891883289e-06
-0.5039999999999998,9.889576055482299e-09,-0.5039999999999998,3.404789156654919e-08,-0.5039999999999998,1.039088439690235e-07,-0.5039999999999998,2.645652355241165e-07,-0.5039999999999998,5.640954281788449e-07,-0.5039999999999998,1.047986987441165e-06,-0.5039999999999998,1.763506153265813e-06,-0.5039999999999998,2.767357867383418e-06,-0.5039999999999998,2.767357867383418e-06,-0.5039999999999998,9.889576055482299e-09,-0.5039999999999998,3.404789156654919e-08,-0.5039999999999998,1.039088439690235e-07,-0.5039999999999998,2.645652355241165e-07,-0.5039999999999998,5.640954281788449e-07,-0.5039999999999998,1.763506153265813e-06,-0.5039999999999998,9.889576055482299e-09,-0.5039999999999998,1.047986987441165e-06
-0.4759999999999998,7.21125171488598e-09,-0.4759999999999998,2.52625373670862e-08,-0.4759999999999998,7.999475685650032e-08,-0.4759999999999998,2.133864613962188e-07,-0.4759999999999998,4.737752078011495e-07,-0.4759999999999998,9.070367696348114e-07,-0.4759999999999998,1.55938960859768e-06,-0.4759999999999998,2.483575647129207e-06,-0.4759999999999998,2.483575647129207e-06,-0.4759999999999998,7.21125171488598e-09,-0.4759999999999998,2.52625373670862e-08,-0.4759999999999998,7.999475685650032e-08,-0.4759999999999998,2.133864613962188e-07,-0.4759999999999998,4.737752078011495e-07,-0.4759999999999998,1.55938960859768e-06,-0.4759999999999998,7.21125171488598e-09,-0.4759999999999998,9.070367696348114e-07
-0.4479999999999997,5.24723320531285e-09,-0.4479999999999997,1.863154078937761e-08,-0.4479999999999997,6.092691613027215e-08,-0.4479999999999997,1.701509414664949e-07,-0.4479999999999997,3.942909209017262e-07,-0.4479999999999997,7.798191292062696e-07,-0.4479999999999997,1.372284031332315e-06,-0.4479999999999997,2.222098780171622e-06,-0.4479999999999997,2.222098780171622e-06,-0.4479999999999997,5.24723320531285e-09,-0.4479999999999997,1.863154078937761e-08,-0.4479999999999997,6.092691613027215e-08,-0.4479999999999997,1.701509414664949e-07,-0.4479999999999997,3.942909209017262e-07,-0.4479999999999997,1.372284031332315e-06,-0.4479999999999997,5.24723320531285e-09,-0.4479999999999997,7.798191292062696e-07
-0.4199999999999997,3.812146097201621e-09,-0.4199999999999997,1.367492139318489e-08,-0.4199999999999997,4.595108133455681e-08,-0.4199999999999997,1.34101168684382e-07,-0.4199999999999997,3.249385014710996e-07,-0.4199999999999997,6.655988366301083e-07,-0.4199999999999997,1.201326376883967e-06,-0.4199999999999997,1.980682117379191e-06,-0.4199999999999997,1.980682117379191e-06,-0.4199999999999997,3.812146097201621e-09,-0.4199999999999997,1.367492139318489e-08,-0.4199999999999997,4.595108133455681e-08,-0.4199999999999997,1.34101168684382e-07,-0.4199999999999997,3.249385014710996e-07,-0.4199999999999997,1.201326376883967e-06,-0.4199999999999997,3.812146097201621e-09,-0.4199999999999997,6.655988366301083e-07
-0.3919999999999997,2.766324739187053e-09,-0.3919999999999997,9.999077615206515e-09,-0.3919999999999997,3.435703461050337e-08,-0.3919999999999997,1.044636338209053e-07,-0.3919999999999997,2.650056701748754e-07,-0.3919999999999997,5.636565064983034e-07,-0.3919999999999997,1.045694127898731e-06,-0.3919999999999997,1.758218401709912e-06,-0.3919999999999997,1.758218401709912e-06,-0.3919999999999997,2.766324739187053e-09,-0.3919999999999997,9.999077615206515e-09,-0.3919999999999997,3.435703461050337e-08,-0.3919999999999997,1.044636338209053e-07,-0.3919999999999997,2.650056701748754e-07,-0.3919999999999997,1.045694127898731e-06,-0.3919999999999997,2.766324739187053e-09,-0.3919999999999997,5.636565064983034e-07
-0.3639999999999997,2.005669263635175e-09,-0.3639999999999997,7.290091564646512e-09,-0.3639999999999997,2.549848252844689e-08,-0.3639999999999997,8.045654675497868e-08,-0.3639999999999997,2.137667817146755e-07,-0.3639999999999997,4.732824757958136e-07,-0.3639999999999997,9.045987917585956e-07,-0.3639999999999997,1.5537315511555e-06,-0.3639999999999997,1.5537315511555e-06,-0.3639999999999997,2.005669263635175e-09,-0.3639999999999997,7.290091564646512e-09,-0.3639999999999997,2.549848252844689e-08,-0.3639999999999997,8.045654675497868e-08,-0.3639999999999997,2.137667817146755e-07,-0.3639999999999997,9.045987917585956e-07,-0.3639999999999997,2.005669263635175e-09,-0.3639999999999997,4.732824757958136e-07
-0.3359999999999996,1.453211649435195e-09,-0.3359999999999996,5.303308529112294e-09,-0.3359999999999996,1.880793433141033e-08,-0.3359999999999996,6.130321346810422e-08,-0.3359999999999996,1.704791923730585e-07,-0.3359999999999996,3.937706009931017e-07,-0.3359999999999996,7.772796650177044e-07,-0.3359999999999996,1.366305297492533e-06,-0.3359999999999996,1.366305297492533e-06,-0.3359999999999996,1.453211649435195e-09,-0.3359999999999996,5.303308529112294e-09,-0.3359999999999996,1.880793433141033e-08,-0.3359999999999996,6.130321346810422e-08,-0.3359999999999996,1.704791923730585e-07,-0.3359999999999996,7.772796650177044e-07,-0.3359999999999996,1.453211649435195e-09,-0.3359999999999996,3.937706009931017e-07
-0.3079999999999996,1.052382110431127e-09,-0.3079999999999996,3.851548321145645e-09,-0.3079999999999996,1.38041446212635e-08,-0.3079999999999996,4.625029137643535e-08,-0.3079999999999996,1.343822342940506e-07,-0.3079999999999996,3.244120855857669e-07,-0.3079999999999996,6.629976711990826e-07,-0.3079999999999996,1.195070916275916e-06,-0.3079999999999996,1.195070916275916e-06,-0.3079999999999996,1.052382110431127e-09,-0.3079999999999996,3.851548321145645e-09,-0.3079999999999996,1.38041446212635e-08,-0.3079999999999996,4.625029137643535e-08,-0.3079999999999996,1.343822342940506e-07,-0.3079999999999996,6.629976711990826e-07,-0.3079999999999996,1.052382110431127e-09,-0.3079999999999996,3.244120855857669e-07
-0.2799999999999996,7.617837260161673e-10,-0.2799999999999996,2.793653220042591e-09,-0.2799999999999996,1.009183946192554e-08,-0.2799999999999996,3.458850140629073e-08,-0.2799999999999996,1.047000741577258e-07,-0.2799999999999996,2.644896120718036e-07,-0.2799999999999996,5.610291471176021e-07,-0.2799999999999996,1.039199499091318e-06,-0.2799999999999996,1.039199499091318e-06,-0.2799999999999996,7.617837260161673e-10,-0.2799999999999996,2.793653220042591e-09,-0.2799999999999996,1.009183946192554e-08,-0.2799999999999996,3.458850140629073e-08,-0.2799999999999996,1.047000741577258e-07,-0.2799999999999996,5.610291471176021e-07,-0.2799999999999996,7.617837260161673e-10,-0.2799999999999996,2.644896120718036e-07
-0.2519999999999996,5.512182500613873e-10,-0.2519999999999996,2.024337378704494e-09,-0.2519999999999996,7.355269696032104e-09,-0.2519999999999996,2.567215026151619e-08,-0.2519999999999996,8.064959979171951e-08,-0.2519999999999996,2.132722813842178e-07,-0.2519999999999996,4.706594998966759e-07,-0.2519999999999996,8.978948559108862e-07,-0.2519999999999996,8.978948559108862e-07,-0.2519999999999996,5.512182500613873e-10,-0.2519999999999996,2.024337378704494e-09,-0.2519999999999996,7.355269696032104e-09,-0.2519999999999996,2.567215026151619e-08,-0.2519999999999996,8.064959979171951e-08,-0.2519999999999996,4.706594998966759e-07,-0.2519999999999996,5.512182500613873e-10,-0.2519999999999996,2.132722813842178e-07
-0.2239999999999996,3.987064816441087e-10,-0.2239999999999996,1.465717057346055e-09,-0.2239999999999996,5.347999098408087e-09,-0.2239999999999996,1.893377666611174e-08,-0.2239999999999996,6.145379710587498e-08,-0.2239999999999996,1.700121476228197e-07,-0.2239999999999996,3.911767150208871e-07,-0.2239999999999996,7.703863477934452e-07,-0.2239999999999996,7.703863477934452e-07,-0.2239999999999996,3.987064816441087e-10,-0.2239999999999996,1.465717057346055e-09,-0.2239999999999996,5.347999098408087e-09,-0.2239999999999996,1.893377666611174e-08,-0.2239999999999996,6.145379710587498e-08,-0.2239999999999996,3.911767150208871e-07,-0.2239999999999996,3.987064816441087e-10,-0.2239999999999996,1.700121476228197e-07
-0.1959999999999996,2.88277003843286e-10,-0.1959999999999996,1.060530440854365e-09,-0.1959999999999996,3.881250478061817e-09,-0.1959999999999996,1.38915576620615e-08,-0.1959999999999996,4.635979490624661e-08,-0.1959999999999996,1.339434177286098e-07,-0.1959999999999996,3.218647745167472e-07,-0.1959999999999996,6.559211305227103e-07,-0.1959999999999996,6.559211305227103e-07,-0.1959999999999996,2.88277003843286e-10,-0.1959999999999996,1.060530440854365e-09,-0.1959999999999996,3.881250478061817e-09,-0.1959999999999996,1.38915576620615e-08,-0.1959999999999996,4.635979490624661e-08,-0.1959999999999996,3.218647745167472e-07,-0.1959999999999996,2.88277003843286e-10,-0.1959999999999996,1.339434177286098e-07
-0.1679999999999996,2.08337038656907e-10,-0.1679999999999996,7.668654584972486e-10,-0.1679999999999996,2.812515242486481e-09,-0.1679999999999996,1.01491553989322e-08,-0.1679999999999996,3.465918330494741e-08,-0.1679999999999996,1.0428552863013e-07,-0.1679999999999996,2.619971292733711e-07,-0.1679999999999996,5.537549449346338e-07,-0.1679999999999996,5.537549449346338e-07,-0.1679999999999996,2.08337038656907e-10,-0.1679999999999996,7.668654584972486e-10,-0.1679999999999996,2.812515242486481e-09,-0.1679999999999996,1.01491553989322e-08,-0.1679999999999996,3.465918330494741e-08,-0.1679999999999996,2.619971292733711e-07,-0.1679999999999996,2.08337038656907e-10,-0.1679999999999996,1.0428552863013e-07
-0.1399999999999996,1.504782858537253e-10,-0.1399999999999996,5.541434918085808e-10,-0.1399999999999996,2.035408778114267e-09,-0.1399999999999996,7.389458938087871e-09,-0.1399999999999996,2.570705157058366e-08,-0.1399999999999996,8.025109146608865e-08,-0.1399999999999996,2.108303458247415e-07,-0.1399999999999996,4.631392661940747e-07,-0.1399999999999996,4.631392661940747e-07,-0.1399999999999996,1.504782858537253e-10,-0.1399999999999996,5.541434918085808e-10,-0.1399999999999996,2.035408778114267e-09,-0.1399999999999996,7.389458938087871e-09,-0.1399999999999996,2.570705157058366e-08,-0.1399999999999996,2.108303458247415e-07,-0.1399999999999996,1.504782858537253e-10,-0.1399999999999996,8.025109146608865e-08
-0.1119999999999996,1.086043725536043e-10,-0.1119999999999996,4.001028210475541e-10,-0.1119999999999996,1.471167546501534e-09,-0.1119999999999996,5.364528397225666e-09,-0.1119999999999996,1.893611905226062e-08,-0.1119999999999996,6.105873371862608e-08,-0.1119999999999996,1.675970473291474e-07,-0.1119999999999996,3.832951986050808e-07,-0.1119999999999996,3.832951986050808e-07,-0.1119999999999996,1.086043725536043e-10,-0.1119999999999996,4.001028210475541e-10,-0.1119999999999996,1.471167546501534e-09,-0.1119999999999996,5.364528397225666e-09,-0.1119999999999996,1.893611905226062e-08,-0.1119999999999996,1.675970473291474e-07,-0.1119999999999996,1.086043725536043e-10,-0.1119999999999996,6.105873371862608e-08
-0.08399999999999958,7.829001009820047e-11,-0.08399999999999958,2.885384475950255e-10,-0.08399999999999958,1.061750522146972e-09,-0.08399999999999958,3.883780498464972e-09,-0.08399999999999958,1.386277822330872e-08,-0.08399999999999958,4.594616401564456e-08,-0.08399999999999958,1.3148064814561e-07,-0.08399999999999958,3.132625628182342e-07,-0.08399999999999958,3.132625628182342e-07,-0.08399999999999958,7.829001009820047e-11,-0.08399999999999958,2.885384475950255e-10,-0.08399999999999958,1.061750522146972e-09,-0.08399999999999958,3.883780498464972e-09,-0.08399999999999958,1.386277822330872e-08,-0.08399999999999958,1.3148064814561e-07,-0.08399999999999958,7.829001009820047e-11,-0.08399999999999958,4.594616401564456e-08
-0.05599999999999958,5.609620357128913e-11,-0.05599999999999958,2.068283624619036e-10,-0.05599999999999958,7.614838991499541e-10,-0.05599999999999958,2.791396846834839e-09,-0.05599999999999958,1.004464210201414e-08,-0.05599999999999958,3.402590303837768e-08,-0.05599999999999958,1.00917831665603e-07,-0.05599999999999958,2.486575569444088e-07,-0.05599999999999958,2.486575569444088e-07,-0.05599999999999958,5.609620357128913e-11,-0.05599999999999958,2.068283624619036e-10,-0.05599999999999958,7.614838991499541e-10,-0.05599999999999958,2.791396846834839e-09,-0.05599999999999958,1.004464210201414e-08,-0.05599999999999958,1.00917831665603e-07,-0.05599999999999958,5.609620357128913e-11,-0.05599999999999958,3.402590303837768e-08
-0.02799999999999958,3.587378381857732e-11,-0.02799999999999958,1.323213958298206e-10,-0.02799999999999958,4.872965594287435e-10,-0.02799999999999958,1.787995495692643e-09,-0.02799999999999958,6.46017936087835e-09,-0.02799999999999958,2.212655547909777e-08,-0.02799999999999958,6.650780721330634e-08,-0.02799999999999958,1.630532634187366e-07,-0.02799999999999958,1.630532634187366e-07,-0.02799999999999958,3.587378381857732e-11,-0.02799999999999958,1.323213958298206e-10,-0.02799999999999958,4.872965594287435e-10,-0.02799999999999958,1.787995495692643e-09,-0.02799999999999958,6.46017936087835e-09,-0.02799999999999958,6.650780721330634e-08,-0.02799999999999958,3.587378381857732e-11,-0.02799999999999958,2.212655547909777e-08
0,-9.116440394886789e-16,0,-6.594300349585114e-16,0,-4.681826865301246e-16,0,-3.250059791039342e-16,0,-2.189961829902884e-16,0,-1.409609088612042e-16,0,-8.2889319852614e-17,0,-3.736561308758265e-17,0,3.736561308758265e-17,0,9.116440394886789e-16,0,6.594300349585114e-16,0,4.681826865301246e-16,0,3.250059791039342e-16,0,2.189961829902884e-16,0,8.2889319852614e-17,0,9.116440394886789e-16,0,1.409609088612042e-16
0.028,-1.360070721012681e-10,0.028,-5.011674753010195e-10,0.028,-1.834204977923124e-09,0.028,-6.586190741803415e-09,0.028,-2.231981298726526e-08,0.028,-6.613083753301551e-08,0.028,-1.597563977939574e-07,0.028,-3.136362960488141e-07,0.028,3.136362960488141e-07,0.028,1.360070721012681e-10,0.028,5.011674753010195e-10,0.028,1.834204977923124e-09,0.028,6.586190741803415e-09,0.028,2.231981298726526e-08,0.028,1.597563977939574e-07,0.028,1.360070721012681e-10,0.028,6.613083753301551e-08
