/TP0/D (Vm=0.1) X,/TP0/D (Vm=0.1) Y,/TP0/D (Vm=0.2333333) X,/TP0/D (Vm=0.2333333) Y,/TP0/D (Vm=0.3666667) X,/TP0/D (Vm=0.3666667) Y,/TP0/D (Vm=0.5) X,/TP0/D (Vm=0.5) Y,abs(value(getData("/TP0/D" ?result "dc") "Vm" 0.3)) X,abs(value(getData("/TP0/D" ?result "dc") "Vm" 0.3)) Y,abs(value(getData("/TP0/D" ?result "dc") "Vm" 0.4)) X,abs(value(getData("/TP0/D" ?result "dc") "Vm" 0.4)) Y,abs(value(getData("/TP0/D" ?result "dc") "Vm" 0.5)) X,abs(value(getData("/TP0/D" ?result "dc") "Vm" 0.5)) Y,abs(value(getData("/TP0/D" ?result "dc") "Vm" 0.2)) X,abs(value(getData("/TP0/D" ?result "dc") "Vm" 0.2)) Y,abs(value(getData("/TP0/D" ?result "dc") "Vm" 0.1)) X,abs(value(getData("/TP0/D" ?result "dc") "Vm" 0.1)) Y
-0.7,1.095739885393847e-08,-0.7,1.389350060254167e-07,-0.7,7.577139214876171e-07,-0.7,2.18228185529636e-06,-0.7,1.389350060254167e-07,-0.7,7.577139214876171e-07,-0.7,2.18228185529636e-06,-0.7,1.095739885393847e-08,-0.7,1.095739885393847e-08
-0.6719999999999999,7.940723474980712e-09,-0.6719999999999999,1.08655739027932e-07,-0.6719999999999999,6.531619128170736e-07,-0.6719999999999999,1.97599731522843e-06,-0.6719999999999999,1.08655739027932e-07,-0.6719999999999999,6.531619128170736e-07,-0.6719999999999999,1.97599731522843e-06,-0.6719999999999999,7.940723474980712e-09,-0.6719999999999999,7.940723474980712e-09
-0.6439999999999999,5.743478795112407e-09,-0.6439999999999999,8.401037428833439e-08,-0.6439999999999999,5.588586692426797e-07,-0.6439999999999999,1.782670738048179e-06,-0.6439999999999999,8.401037428833439e-08,-0.6439999999999999,5.588586692426797e-07,-0.6439999999999999,1.782670738048179e-06,-0.6439999999999999,5.743478795112407e-09,-0.6439999999999999,5.743478795112407e-09
-0.6159999999999999,4.148656710038458e-09,-0.6159999999999999,6.425322610458804e-08,-0.6159999999999999,4.743328770517224e-07,-0.6159999999999999,1.6019157277506e-06,-0.6159999999999999,6.425322610458804e-08,-0.6159999999999999,4.743328770517224e-07,-0.6159999999999999,1.6019157277506e-06,-0.6159999999999999,4.148656710038458e-09,-0.6159999999999999,4.148656710038458e-09
-0.5879999999999999,2.993978472649509e-09,-0.5879999999999999,4.865351902512653e-08,-0.5879999999999999,3.991053875907601e-07,-0.5879999999999999,1.433355787771974e-06,-0.5879999999999999,4.865351902512653e-08,-0.5879999999999999,3.991053875907601e-07,-0.5879999999999999,1.433355787771974e-06,-0.5879999999999999,2.993978472649509e-09,-0.5879999999999999,2.993978472649509e-09
-0.5599999999999998,2.159426195515496e-09,-0.5599999999999998,3.65148347639979e-08,-0.5599999999999998,3.326847806777946e-07,-0.5599999999999998,1.276622373922634e-06,-0.5599999999999998,3.65148347639979e-08,-0.5599999999999998,3.326847806777946e-07,-0.5599999999999998,1.276622373922634e-06,-0.5599999999999998,2.159426195515496e-09,-0.5599999999999998,2.159426195515496e-09
-0.5319999999999998,1.556956642947716e-09,-0.5319999999999998,2.719568843944498e-08,-0.5319999999999998,2.745628062113237e-07,-0.5319999999999998,1.131353023108898e-06,-0.5319999999999998,2.719568843944498e-08,-0.5319999999999998,2.745628062113237e-07,-0.5319999999999998,1.131353023108898e-06,-0.5319999999999998,1.556956642947716e-09,-0.5319999999999998,1.556956642947716e-09
-0.5039999999999998,1.122361361851708e-09,-0.5039999999999998,2.012614406731923e-08,-0.5039999999999998,2.242099548297106e-07,-0.5039999999999998,9.971893453825846e-07,-0.5039999999999998,2.012614406731923e-08,-0.5039999999999998,2.242099548297106e-07,-0.5039999999999998,9.971893453825846e-07,-0.5039999999999998,1.122361361851708e-09,-0.5039999999999998,1.122361361851708e-09
-0.4759999999999998,8.090095712022495e-10,-0.4759999999999998,1.481758156112228e-08,-0.4759999999999998,1.810716681390511e-07,-0.4759999999999998,8.73774832942597e-07,-0.4759999999999998,1.481758156112228e-08,-0.4759999999999998,1.810716681390511e-07,-0.4759999999999998,8.73774832942597e-07,-0.4759999999999998,8.090095712022495e-10,-0.4759999999999998,8.090095712022495e-10
-0.4479999999999997,5.831348860452157e-10,-0.4479999999999997,1.08647421028898e-08,-0.4479999999999997,1.44565981163395e-07,-0.4479999999999997,7.607524338355595e-07,-0.4479999999999997,1.08647421028898e-08,-0.4479999999999997,1.44565981163395e-07,-0.4479999999999997,7.607524338355595e-07,-0.4479999999999997,5.831348860452157e-10,-0.4479999999999997,5.831348860452157e-10
-0.4199999999999997,4.203351200205911e-10,-0.4199999999999997,7.941154029647415e-09,-0.4199999999999997,1.140836692606775e-07,-0.4199999999999997,6.577618334364063e-07,-0.4199999999999997,7.941154029647415e-09,-0.4199999999999997,1.140836692606775e-07,-0.4199999999999997,6.577618334364063e-07,-0.4199999999999997,4.203351200205911e-10,-0.4199999999999997,4.203351200205911e-10
-0.3919999999999997,3.02998780422312e-10,-0.3919999999999997,5.790172421705533e-09,-0.3919999999999997,8.899211295634685e-08,-0.3919999999999997,5.64436385722115e-07,-0.3919999999999997,5.790172421705533e-09,-0.3919999999999997,8.899211295634685e-08,-0.3919999999999997,5.64436385722115e-07,-0.3919999999999997,3.02998780422312e-10,-0.3919999999999997,3.02998780422312e-10
-0.3639999999999997,2.184260892283133e-10,-0.3639999999999997,4.214001307362139e-09,-0.3639999999999997,6.864389119505468e-08,-0.3639999999999997,4.803996430518467e-07,-0.3639999999999997,4.214001307362139e-09,-0.3639999999999997,6.864389119505468e-08,-0.3639999999999997,4.803996430518467e-07,-0.3639999999999997,2.184260892283133e-10,-0.3639999999999997,2.184260892283133e-10
-0.3359999999999996,1.574637470115931e-10,-0.3359999999999996,3.062555622124324e-09,-0.3359999999999996,5.239037628178226e-08,-0.3359999999999996,4.052614545350874e-07,-0.3359999999999996,3.062555622124324e-09,-0.3359999999999996,5.239037628178226e-08,-0.3359999999999996,4.052614545350874e-07,-0.3359999999999996,1.574637470115931e-10,-0.3359999999999996,1.574637470115931e-10
-0.3079999999999996,1.135162847524417e-10,-0.3079999999999996,2.223308830331646e-09,-0.3079999999999996,3.959933878653352e-08,-0.3079999999999996,3.386136496779708e-07,-0.3079999999999996,2.223308830331646e-09,-0.3079999999999996,3.959933878653352e-08,-0.3079999999999996,3.386136496779708e-07,-0.3079999999999996,1.135162847524417e-10,-0.3079999999999996,1.135162847524417e-10
-0.2799999999999996,8.183174166070423e-11,-0.2799999999999996,1.612654825419659e-09,-0.2799999999999996,2.967415311882116e-08,-0.2799999999999996,2.80025410569827e-07,-0.2799999999999996,1.612654825419659e-09,-0.2799999999999996,2.967415311882116e-08,-0.2799999999999996,2.80025410569827e-07,-0.2799999999999996,8.183174166070423e-11,-0.2799999999999996,8.183174166070423e-11
-0.2519999999999996,5.898631697478394e-11,-0.2519999999999996,1.168893859567218e-09,-0.2519999999999996,2.20713067849553e-08,-0.2519999999999996,2.290385797709051e-07,-0.2519999999999996,1.168893859567218e-09,-0.2519999999999996,2.20713067849553e-08,-0.2519999999999996,2.290385797709051e-07,-0.2519999999999996,5.898631697478394e-11,-0.2519999999999996,5.898631697478394e-11
-0.2239999999999996,4.25129192233912e-11,-0.2239999999999996,8.467197794467138e-10,-0.2239999999999996,1.631313750093609e-08,-0.2239999999999996,1.851633660253692e-07,-0.2239999999999996,8.467197794467138e-10,-0.2239999999999996,1.631313750093609e-08,-0.2239999999999996,1.851633660253692e-07,-0.2239999999999996,4.25129192233912e-11,-0.2239999999999996,4.25129192233912e-11
-0.1959999999999996,3.063357773581803e-11,-0.1959999999999996,6.129859421324967e-10,-0.1959999999999996,1.199404432113789e-08,-0.1959999999999996,1.478751907236516e-07,-0.1959999999999996,6.129859421324967e-10,-0.1959999999999996,1.199404432113789e-08,-0.1959999999999996,1.478751907236516e-07,-0.1959999999999996,3.063357773581803e-11,-0.1959999999999996,3.063357773581803e-11
-0.1679999999999996,2.206672291561547e-11,-0.1679999999999996,4.435061679818529e-10,-0.1679999999999996,8.780189707356376e-09,-0.1679999999999996,1.166137116093706e-07,-0.1679999999999996,4.435061679818529e-10,-0.1679999999999996,8.780189707356376e-09,-0.1679999999999996,1.166137116093706e-07,-0.1679999999999996,2.206672291561547e-11,-0.1679999999999996,2.206672291561547e-11
-0.1399999999999996,1.588838620803686e-11,-0.1399999999999996,3.206657669348192e-10,-0.1399999999999996,6.404111631633485e-09,-0.1399999999999996,9.078521766177074e-08,-0.1399999999999996,3.206657669348192e-10,-0.1399999999999996,6.404111631633485e-09,-0.1399999999999996,9.078521766177074e-08,-0.1399999999999996,1.588838620803686e-11,-0.1399999999999996,1.588838620803686e-11
-0.1119999999999996,1.143218034902014e-11,-0.1119999999999996,2.316515517333264e-10,-0.1119999999999996,4.656251708722033e-09,-0.1119999999999996,6.97691979618392e-08,-0.1119999999999996,2.316515517333264e-10,-0.1119999999999996,4.656251708722033e-09,-0.1119999999999996,6.97691979618392e-08,-0.1119999999999996,1.143218034902014e-11,-0.1119999999999996,1.143218034902014e-11
-0.08399999999999958,8.216695823795848e-12,-0.08399999999999958,1.671378344011975e-10,-0.08399999999999958,3.375085972428253e-09,-0.08399999999999958,5.29250053479381e-08,-0.08399999999999958,1.671378344011975e-10,-0.08399999999999958,3.375085972428253e-09,-0.08399999999999958,5.29250053479381e-08,-0.08399999999999958,8.216695823795848e-12,-0.08399999999999958,8.216695823795848e-12
-0.05599999999999958,5.870297230215069e-12,-0.05599999999999958,1.198557551078516e-10,-0.05599999999999958,2.427926767401939e-09,-0.05599999999999958,3.940897319794805e-08,-0.05599999999999958,1.198557551078516e-10,-0.05599999999999958,2.427926767401939e-09,-0.05599999999999958,3.940897319794805e-08,-0.05599999999999958,5.870297230215069e-12,-0.05599999999999958,5.870297230215069e-12
-0.02799999999999958,3.743299092139898e-12,-0.02799999999999958,7.670702994212776e-11,-0.02799999999999958,1.556135076425045e-09,-0.02799999999999958,2.563929538684836e-08,-0.02799999999999958,7.670702994212776e-11,-0.02799999999999958,1.556135076425045e-09,-0.02799999999999958,2.563929538684836e-08,-0.02799999999999958,3.743299092139898e-12,-0.02799999999999958,3.743299092139898e-12
0,-9.116440394886789e-16,0,-9.116440394886789e-16,0,-9.116440394886789e-16,0,-9.116440394886789e-16,0,9.116440394886789e-16,0,9.116440394886789e-16,0,9.116440394886789e-16,0,9.116440394886789e-16,0,9.116440394886789e-16
0.028,-1.412738350689386e-11,0.028,-2.909986682297747e-10,0.028,-5.747182785912814e-09,0.028,-7.270329554482845e-08,0.028,2.909986682297747e-10,0.028,5.747182785912814e-09,0.028,7.270329554482845e-08,0.028,1.412738350689386e-11,0.028,1.412738350689386e-11
0.05599999999999999,-8.355081481365283e-11,0.05599999999999999,-1.715881252903714e-09,0.05599999999999999,-3.057346036438115e-08,0.05599999999999999,-2.519583923504792e-07,0.05599999999999999,1.715881252903714e-09,0.05599999999999999,3.057346036438115e-08,0.05599999999999999,2.519583923504792e-07,0.05599999999999999,8.355081481365283e-11,0.05599999999999999,8.355081481365283e-11
0.08399999999999999,-4.404478366975069e-10,0.08399999999999999,-8.799981506556326e-09,0.08399999999999999,-1.168575128242125e-07,0.08399999999999999,-5.906020942150382e-07,0.08399999999999999,8.799981506556326e-09,0.08399999999999999,1.168575128242125e-07,0.08399999999999999,5.906020942150382e-07,0.08399999999999999,4.404478366975069e-10,0.08399999999999999,4.404478366975069e-10
0.112,-2.292397315143817e-09,0.112,-4.055797490975348e-08,0.112,-3.29666985463417e-07,0.112,-1.126501597943758e-06,0.112,4.055797490975348e-08,0.112,3.29666985463417e-07,0.112,1.126501597943758e-06,0.112,2.292397315143817e-09,0.112,2.292397315143817e-09
0.14,-1.154590325268758e-08,0.14,-1.469213217239651e-07,0.14,-7.221465329881836e-07,0.14,-1.88198379805402e-06,0.14,1.469213217239651e-07,0.14,7.221465329881836e-07,0.14,1.88198379805402e-06,0.14,1.154590325268758e-08,0.14,1.154590325268758e-08
0.168,-5.162445099256835e-08,0.168,-3.941952127419809e-07,0.168,-1.326085495998717e-06,0.168,-2.868480580260329e-06,0.168,3.941952127419809e-07,0.168,1.326085495998717e-06,0.168,2.868480580260329e-06,0.168,5.162445099256835e-08,0.168,5.162445099256835e-08
0.196,-1.782190915835735e-07,0.196,-8.317206716351618e-07,0.196,-2.159423058505798e-06,0.196,-4.091151025758568e-06,0.196,8.317206716351618e-07,0.196,2.159423058505798e-06,0.196,4.091151025758568e-06,0.196,1.782190915835735e-07,0.196,1.782190915835735e-07
0.224,-4.5730686461877e-07,0.224,-1.488170035100964e-06,0.224,-3.232148948244949e-06,0.224,-5.54806782734536e-06,0.224,1.488170035100964e-06,0.224,3.232148948244949e-06,0.224,5.54806782734536e-06,0.224,4.5730686461877e-07,0.224,4.5730686461877e-07
0.252,-9.345467394450135e-07,0.252,-2.379728086604012e-06,0.252,-4.54934345263077e-06,0.252,-7.223282119742088e-06,0.252,2.379728086604012e-06,0.252,4.54934345263077e-06,0.252,7.223282119742088e-06,0.252,9.345467394450135e-07,0.252,9.345467394450135e-07
0.28,-1.636021592962245e-06,0.28,-3.51537362230951e-06,0.28,-6.112783292710883e-06,0.28,-9.091435953943074e-06,0.28,3.51537362230951e-06,0.28,6.112783292710883e-06,0.28,9.091435953943074e-06,0.28,1.636021592962245e-06,0.28,1.636021592962245e-06
0.3080000000000001,-2.576465892564799e-06,0.3080000000000001,-4.8995420755199e-06,0.3080000000000001,-7.921875876913077e-06,0.3080000000000001,-1.112670210220239e-05,0.3080000000000001,4.8995420755199e-06,0.3080000000000001,7.921875876913077e-06,0.3080000000000001,1.112670210220239e-05,0.3080000000000001,2.576465892564799e-06,0.3080000000000001,2.576465892564799e-06
0.3360000000000001,-3.763980375761633e-06,0.3360000000000001,-6.533563445731932e-06,0.3360000000000001,-9.974236829982716e-06,0.3360000000000001,-1.33040586783134e-05,0.3360000000000001,6.533563445731932e-06,0.3360000000000001,9.974236829982716e-06,0.3360000000000001,1.33040586783134e-05,0.3360000000000001,3.763980375761633e-06,0.3360000000000001,3.763980375761633e-06
0.3640000000000001,-5.202399332867424e-06,0.3640000000000001,-8.416526459537118e-06,0.3640000000000001,-1.226587135489799e-05,0.3640000000000001,-1.560088095856808e-05,0.3640000000000001,8.416526459537118e-06,0.3640000000000001,1.226587135489799e-05,0.3640000000000001,1.560088095856808e-05,0.3640000000000001,5.202399332867424e-06,0.3640000000000001,5.202399332867424e-06
0.3920000000000001,-6.892597487407518e-06,0.3920000000000001,-1.054584651806837e-05,0.3920000000000001,-1.478875326649196e-05,0.3920000000000001,-1.799689530352328e-05,0.3920000000000001,1.054584651806837e-05,0.3920000000000001,1.478875326649196e-05,0.3920000000000001,1.799689530352328e-05,0.3920000000000001,6.892597487407518e-06,0.3920000000000001,6.892597487407518e-06
0.4200000000000002,-8.833294289669816e-06,0.4200000000000002,-1.291766425356355e-05,0.4200000000000002,-1.75200315821681e-05,0.4200000000000002,-2.047303210721296e-05,0.4200000000000002,1.291766425356355e-05,0.4200000000000002,1.75200315821681e-05,0.4200000000000002,2.047303210721296e-05,0.4200000000000002,8.833294289669816e-06,0.4200000000000002,8.833294289669816e-06
0.4480000000000002,-1.10215930403711e-05,0.4480000000000002,-1.552713578982441e-05,0.4480000000000002,-2.042459411039448e-05,0.4480000000000002,-2.301001836970021e-05,0.4480000000000002,1.552713578982441e-05,0.4480000000000002,2.042459411039448e-05,0.4480000000000002,2.301001836970021e-05,0.4480000000000002,1.10215930403711e-05,0.4480000000000002,1.10215930403711e-05
0.4760000000000002,-1.345336536257194e-05,0.4760000000000002,-1.836862254324212e-05,0.4760000000000002,-2.345288258656116e-05,0.4760000000000002,-2.558869157371496e-05,0.4760000000000002,1.836862254324212e-05,0.4760000000000002,2.345288258656116e-05,0.4760000000000002,2.558869157371496e-05,0.4760000000000002,1.345336536257194e-05,0.4760000000000002,1.345336536257194e-05
0.5040000000000002,-1.612353753015929e-05,0.5040000000000002,-2.143543717851003e-05,0.5040000000000002,-2.65388982622312e-05,0.5040000000000002,-2.818900610577876e-05,0.5040000000000002,2.143543717851003e-05,0.5040000000000002,2.65388982622312e-05,0.5040000000000002,2.818900610577876e-05,0.5040000000000002,1.612353753015929e-05,0.5040000000000002,1.612353753015929e-05
0.5320000000000003,-1.902630995289964e-05,0.5320000000000003,-2.471475552699959e-05,0.5320000000000003,-2.961329357614993e-05,0.5320000000000003,-3.079374787524162e-05,0.5320000000000003,2.471475552699959e-05,0.5320000000000003,2.961329357614993e-05,0.5320000000000003,3.079374787524162e-05,0.5320000000000003,1.902630995289964e-05,0.5320000000000003,1.902630995289964e-05
0.5600000000000003,-2.215532784001801e-05,0.5600000000000003,-2.817542751404001e-05,0.5600000000000003,-3.262167363176126e-05,0.5600000000000003,-3.339442912855076e-05,0.5600000000000003,2.817542751404001e-05,0.5600000000000003,3.262167363176126e-05,0.5600000000000003,3.339442912855076e-05,0.5600000000000003,2.215532784001801e-05,0.5600000000000003,2.215532784001801e-05
0.5880000000000003,-2.550380880188498e-05,0.5880000000000003,-3.178068469654188e-05,0.5880000000000003,-3.5537772186698e-05,0.5880000000000003,-3.599750888218401e-05,0.5880000000000003,3.178068469654188e-05,0.5880000000000003,3.5537772186698e-05,0.5880000000000003,3.599750888218401e-05,0.5880000000000003,2.550380880188498e-05,0.5880000000000003,2.550380880188498e-05
0.6160000000000003,-2.906456789975851e-05,0.6160000000000003,-3.546788861517845e-05,0.6160000000000003,-3.837156957821105e-05,0.6160000000000003,-3.862228444855024e-05,0.6160000000000003,3.546788861517845e-05,0.6160000000000003,3.837156957821105e-05,0.6160000000000003,3.862228444855024e-05,0.6160000000000003,2.906456789975851e-05,0.6160000000000003,2.906456789975851e-05
0.6440000000000003,-3.282900775313265e-05,0.6440000000000003,-3.914108530563853e-05,0.6440000000000003,-4.116180128173299e-05,0.6440000000000003,-4.129010281399127e-05,0.6440000000000003,3.914108530563853e-05,0.6440000000000003,4.116180128173299e-05,0.6440000000000003,4.129010281399127e-05,0.6440000000000003,3.282900775313265e-05,0.6440000000000003,3.282900775313265e-05
0.6720000000000004,-3.677715387542136e-05,0.6720000000000004,-4.269443478468823e-05,0.6720000000000004,-4.395306745784815e-05,0.6720000000000004,-4.401627190247838e-05,0.6720000000000004,4.269443478468823e-05,0.6720000000000004,4.395306745784815e-05,0.6720000000000004,4.401627190247838e-05,0.6720000000000004,3.677715387542136e-05,0.6720000000000004,3.677715387542136e-05
0.7,-4.087140578237359e-05,0.7,-4.606954317194384e-05,0.7,-4.677869475996863e-05,0.7,-4.680921431708726e-05,0.7,4.606954317194384e-05,0.7,4.677869475996863e-05,0.7,4.680921431708726e-05,0.7,4.087140578237359e-05,0.7,4.087140578237359e-05
